T86A4 299:402 SEGGER J-Link V6.32 Log File (0000ms, 11180ms total)
T86A4 299:402 DLL Compiled: Apr 20 2018 17:25:02 (0000ms, 11180ms total)
T86A4 299:402 Logging started @ 2021-04-28 20:58 (0000ms, 11180ms total)
T86A4 299:402 JLINK_SetWarnOutHandler(...) (0000ms, 11180ms total)
T86A4 299:402 JLINK_OpenEx(...)
Firmware: J-Link OB-STM32F072-CortexM compiled Jan  7 2019 14:09:37
Hardware: V1.00
S/N: 2147483647
Feature(s): GDB, RDI, FlashBP, FlashDL, JFlash, RDDI
TELNET listener socket opened on port 19021XML file found at: C:\Keil_v5\ARM\Segger\JLinkDevices.xml (0085ms, 11265ms total)
T86A4 299:402 C:\Keil_v5\ARM\Segger\JLinkDevices.xml evaluated successfully.Device "CORTEX-M4" selected.WEBSRV 
Starting webserver (0143ms, 11323ms total)
T86A4 299:402 WEBSRV Webserver running on local port 19080 (0144ms, 11324ms total)
T86A4 299:402   returns O.K. (0144ms, 11324ms total)
T86A4 299:549 JLINK_GetEmuCaps()  returns 0xB8EA5A33 (0000ms, 11324ms total)
T86A4 299:549 JLINK_TIF_GetAvailable(...) (0003ms, 11327ms total)
T86A4 299:552 JLINK_SetErrorOutHandler(...) (0000ms, 11327ms total)
T86A4 299:552 JLINK_ExecCommand("ProjectFile = "C:\Users\fan\Documents\WeChat Files\fanyang15307505\FileStorage\File\2021-04\GD32E103RB_V2.0_4.24\GD32E103RB_V2.0_4.24\GD32E103RB_V1.0_Keil\JLinkSettings.ini"", ...). Device "CORTEX-M4" selected.  returns 0x00 (0006ms, 11333ms total)
T86A4 299:561 JLINK_ExecCommand("Device = GD32E103RB", ...). Device "CORTEX-M4" selected.  returns 0x00 (0005ms, 11338ms total)
T86A4 299:566 JLINK_ExecCommand("DisableConnectionTimeout", ...).   returns 0x01 (0000ms, 11338ms total)
T86A4 299:566 JLINK_GetHardwareVersion()  returns 0x2710 (0000ms, 11338ms total)
T86A4 299:566 JLINK_GetDLLVersion()  returns 63200 (0000ms, 11338ms total)
T86A4 299:566 JLINK_GetFirmwareString(...) (0000ms, 11338ms total)
T86A4 299:576 JLINK_GetDLLVersion()  returns 63200 (0000ms, 11338ms total)
T86A4 299:576 JLINK_GetCompileDateTime() (0000ms, 11338ms total)
T86A4 299:581 JLINK_GetFirmwareString(...) (0000ms, 11338ms total)
T86A4 299:584 JLINK_GetHardwareVersion()  returns 0x2710 (0000ms, 11338ms total)
T86A4 299:598 JLINK_TIF_Select(JLINKARM_TIF_SWD)  returns 0x00 (0011ms, 11349ms total)
T86A4 299:610 JLINK_SetSpeed(5000) (0002ms, 11351ms total)
T86A4 299:612 JLINK_GetId() >0x10B TIF>Found SW-DP with ID 0x2BA01477 >0x0D TIF> >0x28 TIF> >0x0D TIF> >0x28 TIF> >0x0D TIF> >0x28 TIF> >0x0D TIF> >0x28 TIF> >0x0D TIF> >0x21 TIF> >0x0D TIF> >0x28 TIF>Scanning AP map to find all available APs >0x0D TIF> >0x28 TIF> >0x0D TIF> >0x21 TIF> >0x0D TIF> >0x21 TIF> >0x0D TIF> >0x28 TIF> >0x0D TIF> >0x21 TIF> >0x0D TIF> >0x21 TIF>AP[1]: Stopped AP scan as end of AP map has been reachedAP[0]: AHB-AP (IDR: 0x24770011)Iterating through AP map to find AHB-AP to use
 >0x42 TIF> >0x28 TIF> >0x0D TIF> >0x28 TIF> >0x0D TIF> >0x21 TIF> >0x0D TIF> >0x21 TIF> >0x42 TIF> >0x28 TIF> >0x0D TIF> >0x28 TIF> >0x0D TIF> >0x28 TIF> >0x0D TIF> >0x21 TIF> >0x0D TIF> >0x21 TIF>AP[0]: Core foundAP[0]: AHB-AP ROM base: 0xE00FF000 >0x0D TIF> >0x28 TIF> >0x0D TIF> >0x28 TIF> >0x0D TIF> >0x28 TIF> >0x0D TIF> >0x21 TIF> >0x0D TIF> >0x21 TIF>CPUID register: 0x410FC241. Implementer code: 0x41 (ARM)Found Cortex-M4 r0p1, Little endian. -- CPU_ReadMem(4 bytes @ 0xE000EDF0)
 -- CPU_WriteMem(4 bytes @ 0xE000EDF0) -- CPU_ReadMem(4 bytes @ 0xE0002000)FPUnit: 6 code (BP) slots and 2 literal slots -- CPU_ReadMem(4 bytes @ 0xE000EDFC) -- CPU_WriteMem(4 bytes @ 0xE000EDFC) -- CPU_ReadMem(4 bytes @ 0xE0001000) -- CPU_WriteMem(4 bytes @ 0xE0001000) -- CPU_ReadMem(4 bytes @ 0xE000ED88) -- CPU_WriteMem(4 bytes @ 0xE000ED88) -- CPU_ReadMem(4 bytes @ 0xE000ED88) -- CPU_WriteMem(4 bytes @ 0xE000ED88)CoreSight components:ROMTbl[0] @ E00FF000 -- CPU_ReadMem(16 bytes @ 0xE00FF000)
 -- CPU_ReadMem(16 bytes @ 0xE000EFF0) -- CPU_ReadMem(16 bytes @ 0xE000EFE0)ROMTbl[0][0]: E000E000, CID: B105E00D, PID: 000BB00C SCS-M7 -- CPU_ReadMem(16 bytes @ 0xE0001FF0) -- CPU_ReadMem(16 bytes @ 0xE0001FE0)ROMTbl[0][1]: E0001000, CID: B105E00D, PID: 003BB002 DWT -- CPU_ReadMem(16 bytes @ 0xE0002FF0) -- CPU_ReadMem(16 bytes @ 0xE0002FE0)ROMTbl[0][2]: E0002000, CID: B105E00D, PID: 002BB003 FPB -- CPU_ReadMem(16 bytes @ 0xE0000FF0) -- CPU_ReadMem(16 bytes @ 0xE0000FE0)
ROMTbl[0][3]: E0000000, CID: B105E00D, PID: 003BB001 ITM -- CPU_ReadMem(16 bytes @ 0xE00FF010) -- CPU_ReadMem(16 bytes @ 0xE0040FF0) -- CPU_ReadMem(16 bytes @ 0xE0040FE0)ROMTbl[0][4]: E0040000, CID: B105900D, PID: 000BB9A1 TPIU -- CPU_ReadMem(16 bytes @ 0xE0041FF0) -- CPU_ReadMem(16 bytes @ 0xE0041FE0)ROMTbl[0][5]: E0041000, CID: 00000000, PID: 00000000 ??? >0x0D TIF> >0x21 TIF>  returns 0x2BA01477 (0432ms, 11783ms total)
T86A4 300:044 JLINK_GetDLLVersion()  returns 63200 (0000ms, 11783ms total)
T86A4 300:044 JLINK_CORE_GetFound()  returns 0xE0000FF (0000ms, 11783ms total)
T86A4 300:044 JLINK_GetDebugInfo(0x100 = JLINKARM_ROM_TABLE_ADDR_INDEX) -- Value=0xE00FF000  returns 0x00 (0000ms, 11783ms total)
T86A4 300:052 JLINK_GetDebugInfo(0x100 = JLINKARM_ROM_TABLE_ADDR_INDEX) -- Value=0xE00FF000  returns 0x00 (0000ms, 11783ms total)
T86A4 300:052 JLINK_GetDebugInfo(0x101 = JLINKARM_DEBUG_INFO_ETM_ADDR_INDEX) -- Value=0x00000000  returns 0x00 (0000ms, 11783ms total)
T86A4 300:052 JLINK_ReadMemEx(0xE0041FF0, 0x0010 Bytes, ..., Flags = 0x02000004) -- CPU_ReadMem(16 bytes @ 0xE0041FF0) - Data: 00 00 00 00 00 00 00 00 00 00 00 00 00 00 00 00  returns 0x10 (0003ms, 11786ms total)
T86A4 300:055 JLINK_GetDebugInfo(0x102 = JLINKARM_DEBUG_INFO_MTB_ADDR_INDEX) -- Value=0x00000000  returns 0x00 (0000ms, 11786ms total)
T86A4 300:055 JLINK_GetDebugInfo(0x103 = JLINKARM_DEBUG_INFO_TPIU_ADDR_INDEX) -- Value=0xE0040000  returns 0x00 (0000ms, 11786ms total)
T86A4 300:055 JLINK_GetDebugInfo(0x104 = JLINKARM_DEBUG_INFO_ITM_ADDR_INDEX) -- Value=0xE0000000  returns 0x00 (0000ms, 11786ms total)
T86A4 300:055 JLINK_GetDebugInfo(0x105 = JLINKARM_DEBUG_INFO_DWT_ADDR_INDEX) -- Value=0xE0001000  returns 0x00 (0000ms, 11786ms total)
T86A4 300:055 JLINK_GetDebugInfo(0x106 = JLINKARM_DEBUG_INFO_FPB_ADDR_INDEX) -- Value=0xE0002000  returns 0x00 (0000ms, 11786ms total)
T86A4 300:055 JLINK_GetDebugInfo(0x107 = JLINKARM_DEBUG_INFO_NVIC_ADDR_INDEX) -- Value=0xE000E000  returns 0x00 (0000ms, 11786ms total)
T86A4 300:055 JLINK_GetDebugInfo(0x10C = JLINKARM_DEBUG_INFO_DBG_ADDR_INDEX) -- Value=0xE000EDF0  returns 0x00 (0000ms, 11786ms total)
T86A4 300:055 JLINK_GetDebugInfo(0x01 = Unknown) -- Value=0x00000001  returns 0x00 (0000ms, 11786ms total)
T86A4 300:055 JLINK_ReadMemU32(0xE000ED00, 0x0001 Items, ...) -- CPU_ReadMem(4 bytes @ 0xE000ED00) - Data: 41 C2 0F 41  returns 0x01 (0003ms, 11789ms total)
T86A4 300:058 JLINK_GetDebugInfo(0x10F = JLINKARM_DEBUG_INFO_HAS_CORTEX_M_SECURITY_EXT_INDEX) -- Value=0x00000000  returns 0x00 (0000ms, 11789ms total)
T86A4 300:058 JLINK_SetResetType(JLINKARM_CM3_RESET_TYPE_RESETPIN)  returns JLINKARM_CM3_RESET_TYPE_NORMAL (0000ms, 11789ms total)
T86A4 300:058 JLINK_Reset() -- CPU is running -- CPU_WriteMem(4 bytes @ 0xE000EDF0) -- CPU is running -- CPU_WriteMem(4 bytes @ 0xE000EDFC)Reset: Halt core after reset via DEMCR.VC_CORERESET.Reset: Reset device via reset pin -- CPU_WriteMem(4 bytes @ 0xE000EDFC) -- CPU_ReadMem(4 bytes @ 0xE000EDF0) -- CPU_WriteMem(4 bytes @ 0xE0002000) -- CPU_ReadMem(4 bytes @ 0xE000EDFC) -- CPU_ReadMem(4 bytes @ 0xE0001000) (0175ms, 11964ms total)
T86A4 300:233 JLINK_Halt()  returns 0x00 (0000ms, 11964ms total)
T86A4 300:233 JLINK_ReadMemU32(0xE000EDF0, 0x0001 Items, ...) -- CPU_ReadMem(4 bytes @ 0xE000EDF0) - Data: 03 00 03 00  returns 0x01 (0003ms, 11967ms total)
T86A4 300:236 JLINK_WriteU32(0xE000EDF0, 0xA05F0003) -- CPU_WriteMem(4 bytes @ 0xE000EDF0)  returns 0x00 (0003ms, 11970ms total)
T86A4 300:239 JLINK_WriteU32(0xE000EDFC, 0x01000000) -- CPU_WriteMem(4 bytes @ 0xE000EDFC)  returns 0x00 (0003ms, 11973ms total)
T86A4 300:277 JLINK_GetHWStatus(...)  returns 0x00 (0003ms, 11976ms total)
T86A4 300:289 JLINK_GetNumBPUnits(Type = 0xFFFFFF00)  returns 0x06 (0000ms, 11976ms total)
T86A4 300:289 JLINK_GetNumBPUnits(Type = 0xF0)  returns 0x2000 (0000ms, 11976ms total)
T86A4 300:289 JLINK_GetNumWPUnits()  returns 0x04 (0000ms, 11976ms total)
T86A4 300:300 JLINK_GetSpeed()  returns 0x7D0 (0000ms, 11976ms total)
T86A4 300:306 JLINK_ReadMemU32(0xE000E004, 0x0001 Items, ...) -- CPU_ReadMem(4 bytes @ 0xE000E004) - Data: 02 00 00 00  returns 0x01 (0003ms, 11979ms total)
T86A4 300:309 JLINK_ReadMemU32(0xE000E004, 0x0001 Items, ...) -- CPU_ReadMem(4 bytes @ 0xE000E004) - Data: 02 00 00 00  returns 0x01 (0003ms, 11982ms total)
T86A4 300:312 JLINK_WriteMemEx(0xE0001000, 0x001C Bytes, ..., Flags = 0x02000004) - Data: 01 00 00 00 00 00 00 00 00 00 00 00 00 00 00 00 ... -- CPU_WriteMem(28 bytes @ 0xE0001000)  returns 0x1C (0003ms, 11985ms total)
T86A4 300:315 JLINK_Halt()  returns 0x00 (0000ms, 11985ms total)
T86A4 300:315 JLINK_IsHalted()  returns TRUE (0000ms, 11985ms total)
T86A4 300:317 JLINK_WriteMem(0x20000000, 0x01B0 Bytes, ...) - Data: 00 BE 0A E0 0D 78 2D 06 68 40 08 24 40 00 00 D3 ... -- CPU_WriteMem(432 bytes @ 0x20000000)  returns 0x1B0 (0008ms, 11993ms total)
T86A4 300:325 JLINK_WriteReg(R0, 0x08000000)  returns 0x00 (0000ms, 11993ms total)
T86A4 300:325 JLINK_WriteReg(R1, 0x00B71B00)  returns 0x00 (0000ms, 11993ms total)
T86A4 300:325 JLINK_WriteReg(R2, 0x00000001)  returns 0x00 (0000ms, 11993ms total)
T86A4 300:325 JLINK_WriteReg(R3, 0x00000000)  returns 0x00 (0000ms, 11993ms total)
T86A4 300:325 JLINK_WriteReg(R4, 0x00000000)  returns 0x00 (0000ms, 11993ms total)
T86A4 300:325 JLINK_WriteReg(R5, 0x00000000)  returns 0x00 (0000ms, 11993ms total)
T86A4 300:325 JLINK_WriteReg(R6, 0x00000000)  returns 0x00 (0000ms, 11993ms total)
T86A4 300:325 JLINK_WriteReg(R7, 0x00000000)  returns 0x00 (0000ms, 11993ms total)
T86A4 300:325 JLINK_WriteReg(R8, 0x00000000)  returns 0x00 (0000ms, 11993ms total)
T86A4 300:325 JLINK_WriteReg(R9, 0x200001A8)  returns 0x00 (0000ms, 11993ms total)
T86A4 300:325 JLINK_WriteReg(R10, 0x00000000)  returns 0x00 (0000ms, 11993ms total)
T86A4 300:325 JLINK_WriteReg(R11, 0x00000000)  returns 0x00 (0000ms, 11993ms total)
T86A4 300:325 JLINK_WriteReg(R12, 0x00000000)  returns 0x00 (0000ms, 11993ms total)
T86A4 300:325 JLINK_WriteReg(R13 (SP), 0x20001000)  returns 0x00 (0000ms, 11993ms total)
T86A4 300:325 JLINK_WriteReg(R14, 0x20000001)  returns 0x00 (0000ms, 11993ms total)
T86A4 300:325 JLINK_WriteReg(R15 (PC), 0x20000038)  returns 0x00 (0000ms, 11993ms total)
T86A4 300:325 JLINK_WriteReg(XPSR, 0x01000000)  returns 0x00 (0000ms, 11993ms total)
T86A4 300:325 JLINK_WriteReg(MSP, 0x20001000)  returns 0x00 (0000ms, 11993ms total)
T86A4 300:325 JLINK_WriteReg(PSP, 0x20001000)  returns 0x00 (0000ms, 11993ms total)
T86A4 300:325 JLINK_WriteReg(CFBP, 0x00000000)  returns 0x00 (0000ms, 11993ms total)
T86A4 300:325 JLINK_SetBPEx(Addr = 0x20000000, Type = 0xFFFFFFF2) -- CPU_ReadMem(4 bytes @ 0x20000000) -- CPU_WriteMem(4 bytes @ 0x20000000) -- CPU_ReadMem(4 bytes @ 0x20000000) -- CPU_WriteMem(4 bytes @ 0x20000000) -- CPU_ReadMem(2 bytes @ 0x20000000)  returns 0x00000001 (0015ms, 12008ms total)
T86A4 300:340 JLINK_Go() -- CPU_WriteMem(2 bytes @ 0x20000000) -- CPU_ReadMem(4 bytes @ 0xE0001000) -- CPU_WriteMem(4 bytes @ 0xE0002008) -- CPU_WriteMem(4 bytes @ 0xE000200C) -- CPU_WriteMem(4 bytes @ 0xE0002010) -- CPU_WriteMem(4 bytes @ 0xE0002014) -- CPU_WriteMem(4 bytes @ 0xE0002018) -- CPU_WriteMem(4 bytes @ 0xE000201C) -- CPU_WriteMem(4 bytes @ 0xE0001004) (0022ms, 12030ms total)
T86A4 300:362 JLINK_IsHalted() -- CPU_ReadMem(2 bytes @ 0x20000000)  returns TRUE (0012ms, 12042ms total)
T86A4 300:374 JLINK_ReadReg(R15 (PC))  returns 0x20000000 (0000ms, 12030ms total)
T86A4 300:374 JLINK_ClrBPEx(BPHandle = 0x00000001)  returns 0x00 (0000ms, 12030ms total)
T86A4 300:374 JLINK_ReadReg(R0)  returns 0x00000000 (0000ms, 12030ms total)
T86A4 300:374 JLINK_WriteReg(R0, 0x08000000)  returns 0x00 (0000ms, 12030ms total)
T86A4 300:374 JLINK_WriteReg(R1, 0x00B71B00)  returns 0x00 (0000ms, 12030ms total)
T86A4 300:374 JLINK_WriteReg(R2, 0x00000001)  returns 0x00 (0000ms, 12030ms total)
T86A4 300:374 JLINK_WriteReg(R3, 0x00000000)  returns 0x00 (0000ms, 12030ms total)
T86A4 300:374 JLINK_WriteReg(R4, 0x00000000)  returns 0x00 (0000ms, 12030ms total)
T86A4 300:374 JLINK_WriteReg(R5, 0x00000000)  returns 0x00 (0000ms, 12030ms total)
T86A4 300:374 JLINK_WriteReg(R6, 0x00000000)  returns 0x00 (0000ms, 12030ms total)
T86A4 300:374 JLINK_WriteReg(R7, 0x00000000)  returns 0x00 (0000ms, 12030ms total)
T86A4 300:374 JLINK_WriteReg(R8, 0x00000000)  returns 0x00 (0000ms, 12030ms total)
T86A4 300:374 JLINK_WriteReg(R9, 0x200001A8)  returns 0x00 (0000ms, 12030ms total)
T86A4 300:374 JLINK_WriteReg(R10, 0x00000000)  returns 0x00 (0000ms, 12030ms total)
T86A4 300:374 JLINK_WriteReg(R11, 0x00000000)  returns 0x00 (0000ms, 12030ms total)
T86A4 300:374 JLINK_WriteReg(R12, 0x00000000)  returns 0x00 (0000ms, 12030ms total)
T86A4 300:374 JLINK_WriteReg(R13 (SP), 0x20001000)  returns 0x00 (0000ms, 12030ms total)
T86A4 300:374 JLINK_WriteReg(R14, 0x20000001)  returns 0x00 (0000ms, 12030ms total)
T86A4 300:374 JLINK_WriteReg(R15 (PC), 0x20000086)  returns 0x00 (0000ms, 12030ms total)
T86A4 300:374 JLINK_WriteReg(XPSR, 0x01000000)  returns 0x00 (0000ms, 12030ms total)
T86A4 300:374 JLINK_WriteReg(MSP, 0x20001000)  returns 0x00 (0000ms, 12030ms total)
T86A4 300:374 JLINK_WriteReg(PSP, 0x20001000)  returns 0x00 (0000ms, 12030ms total)
T86A4 300:374 JLINK_WriteReg(CFBP, 0x00000000)  returns 0x00 (0000ms, 12030ms total)
T86A4 300:374 JLINK_SetBPEx(Addr = 0x20000000, Type = 0xFFFFFFF2)  returns 0x00000002 (0001ms, 12031ms total)
T86A4 300:375 JLINK_Go() -- CPU_ReadMem(4 bytes @ 0xE0001000) (0010ms, 12041ms total)
T86A4 300:385 JLINK_IsHalted()  returns FALSE (0003ms, 12044ms total)
T86A4 300:461 JLINK_IsHalted() -- CPU_ReadMem(2 bytes @ 0x20000000)  returns TRUE (0012ms, 12053ms total)
T86A4 300:473 JLINK_ReadReg(R15 (PC))  returns 0x20000000 (0000ms, 12041ms total)
T86A4 300:473 JLINK_ClrBPEx(BPHandle = 0x00000002)  returns 0x00 (0000ms, 12041ms total)
T86A4 300:473 JLINK_ReadReg(R0)  returns 0x00000000 (0000ms, 12041ms total)
T86A4 300:524 JLINK_WriteReg(R0, 0x00000001)  returns 0x00 (0000ms, 12041ms total)
T86A4 300:524 JLINK_WriteReg(R1, 0x00B71B00)  returns 0x00 (0000ms, 12041ms total)
T86A4 300:524 JLINK_WriteReg(R2, 0x00000001)  returns 0x00 (0000ms, 12041ms total)
T86A4 300:524 JLINK_WriteReg(R3, 0x00000000)  returns 0x00 (0000ms, 12041ms total)
T86A4 300:524 JLINK_WriteReg(R4, 0x00000000)  returns 0x00 (0000ms, 12041ms total)
T86A4 300:524 JLINK_WriteReg(R5, 0x00000000)  returns 0x00 (0000ms, 12041ms total)
T86A4 300:524 JLINK_WriteReg(R6, 0x00000000)  returns 0x00 (0000ms, 12041ms total)
T86A4 300:524 JLINK_WriteReg(R7, 0x00000000)  returns 0x00 (0000ms, 12041ms total)
T86A4 300:524 JLINK_WriteReg(R8, 0x00000000)  returns 0x00 (0001ms, 12042ms total)
T86A4 300:525 JLINK_WriteReg(R9, 0x200001A8)  returns 0x00 (0000ms, 12042ms total)
T86A4 300:525 JLINK_WriteReg(R10, 0x00000000)  returns 0x00 (0000ms, 12042ms total)
T86A4 300:525 JLINK_WriteReg(R11, 0x00000000)  returns 0x00 (0000ms, 12042ms total)
T86A4 300:525 JLINK_WriteReg(R12, 0x00000000)  returns 0x00 (0000ms, 12042ms total)
T86A4 300:525 JLINK_WriteReg(R13 (SP), 0x20001000)  returns 0x00 (0000ms, 12042ms total)
T86A4 300:525 JLINK_WriteReg(R14, 0x20000001)  returns 0x00 (0000ms, 12042ms total)
T86A4 300:525 JLINK_WriteReg(R15 (PC), 0x20000074)  returns 0x00 (0000ms, 12042ms total)
T86A4 300:525 JLINK_WriteReg(XPSR, 0x01000000)  returns 0x00 (0000ms, 12042ms total)
T86A4 300:525 JLINK_WriteReg(MSP, 0x20001000)  returns 0x00 (0000ms, 12042ms total)
T86A4 300:525 JLINK_WriteReg(PSP, 0x20001000)  returns 0x00 (0000ms, 12042ms total)
T86A4 300:525 JLINK_WriteReg(CFBP, 0x00000000)  returns 0x00 (0000ms, 12042ms total)
T86A4 300:525 JLINK_SetBPEx(Addr = 0x20000000, Type = 0xFFFFFFF2)  returns 0x00000003 (0000ms, 12042ms total)
T86A4 300:525 JLINK_Go() -- CPU_ReadMem(4 bytes @ 0xE0001000) (0010ms, 12052ms total)
T86A4 300:535 JLINK_IsHalted() -- CPU_ReadMem(2 bytes @ 0x20000000)  returns TRUE (0012ms, 12064ms total)
T86A4 300:547 JLINK_ReadReg(R15 (PC))  returns 0x20000000 (0000ms, 12052ms total)
T86A4 300:547 JLINK_ClrBPEx(BPHandle = 0x00000003)  returns 0x00 (0000ms, 12052ms total)
T86A4 300:547 JLINK_ReadReg(R0)  returns 0x00000000 (0000ms, 12052ms total)
T86A4 300:552 JLINK_WriteMem(0x20000000, 0x01B0 Bytes, ...) - Data: 00 BE 0A E0 0D 78 2D 06 68 40 08 24 40 00 00 D3 ... -- CPU_WriteMem(432 bytes @ 0x20000000)  returns 0x1B0 (0008ms, 12060ms total)
T86A4 300:560 JLINK_WriteReg(R0, 0x08000000)  returns 0x00 (0000ms, 12060ms total)
T86A4 300:560 JLINK_WriteReg(R1, 0x00B71B00)  returns 0x00 (0000ms, 12060ms total)
T86A4 300:560 JLINK_WriteReg(R2, 0x00000002)  returns 0x00 (0000ms, 12060ms total)
T86A4 300:560 JLINK_WriteReg(R3, 0x00000000)  returns 0x00 (0000ms, 12060ms total)
T86A4 300:560 JLINK_WriteReg(R4, 0x00000000)  returns 0x00 (0000ms, 12060ms total)
T86A4 300:560 JLINK_WriteReg(R5, 0x00000000)  returns 0x00 (0000ms, 12060ms total)
T86A4 300:560 JLINK_WriteReg(R6, 0x00000000)  returns 0x00 (0000ms, 12060ms total)
T86A4 300:560 JLINK_WriteReg(R7, 0x00000000)  returns 0x00 (0000ms, 12060ms total)
T86A4 300:560 JLINK_WriteReg(R8, 0x00000000)  returns 0x00 (0000ms, 12060ms total)
T86A4 300:560 JLINK_WriteReg(R9, 0x200001A8)  returns 0x00 (0000ms, 12060ms total)
T86A4 300:560 JLINK_WriteReg(R10, 0x00000000)  returns 0x00 (0000ms, 12060ms total)
T86A4 300:560 JLINK_WriteReg(R11, 0x00000000)  returns 0x00 (0000ms, 12060ms total)
T86A4 300:560 JLINK_WriteReg(R12, 0x00000000)  returns 0x00 (0000ms, 12060ms total)
T86A4 300:560 JLINK_WriteReg(R13 (SP), 0x20001000)  returns 0x00 (0000ms, 12060ms total)
T86A4 300:560 JLINK_WriteReg(R14, 0x20000001)  returns 0x00 (0000ms, 12060ms total)
T86A4 300:560 JLINK_WriteReg(R15 (PC), 0x20000038)  returns 0x00 (0000ms, 12060ms total)
T86A4 300:560 JLINK_WriteReg(XPSR, 0x01000000)  returns 0x00 (0000ms, 12060ms total)
T86A4 300:560 JLINK_WriteReg(MSP, 0x20001000)  returns 0x00 (0000ms, 12060ms total)
T86A4 300:560 JLINK_WriteReg(PSP, 0x20001000)  returns 0x00 (0000ms, 12060ms total)
T86A4 300:560 JLINK_WriteReg(CFBP, 0x00000000)  returns 0x00 (0000ms, 12060ms total)
T86A4 300:560 JLINK_SetBPEx(Addr = 0x20000000, Type = 0xFFFFFFF2) -- CPU_ReadMem(4 bytes @ 0x20000000) -- CPU_WriteMem(4 bytes @ 0x20000000) -- CPU_ReadMem(4 bytes @ 0x20000000) -- CPU_WriteMem(4 bytes @ 0x20000000) -- CPU_ReadMem(2 bytes @ 0x20000000)  returns 0x00000004 (0015ms, 12075ms total)
T86A4 300:575 JLINK_Go() -- CPU_WriteMem(2 bytes @ 0x20000000) -- CPU_ReadMem(4 bytes @ 0xE0001000) (0013ms, 12088ms total)
T86A4 300:588 JLINK_IsHalted() -- CPU_ReadMem(2 bytes @ 0x20000000)  returns TRUE (0012ms, 12100ms total)
T86A4 300:600 JLINK_ReadReg(R15 (PC))  returns 0x20000000 (0000ms, 12088ms total)
T86A4 300:600 JLINK_ClrBPEx(BPHandle = 0x00000004)  returns 0x00 (0000ms, 12088ms total)
T86A4 300:600 JLINK_ReadReg(R0)  returns 0x00000000 (0000ms, 12088ms total)
T86A4 300:600 JLINK_WriteMem(0x200001B0, 0x0250 Bytes, ...) - Data: 78 2C 00 20 ED 03 00 08 5D 59 00 08 5F 59 00 08 ... -- CPU_WriteMem(592 bytes @ 0x200001B0)  returns 0x250 (0008ms, 12096ms total)
T86A4 300:608 JLINK_WriteMem(0x20000400, 0x01B0 Bytes, ...) - Data: 60 48 00 68 40 F4 70 00 5E 49 08 60 57 48 00 68 ... -- CPU_WriteMem(432 bytes @ 0x20000400)  returns 0x1B0 (0009ms, 12105ms total)
T86A4 300:617 JLINK_WriteReg(R0, 0x08000000)  returns 0x00 (0000ms, 12105ms total)
T86A4 300:617 JLINK_WriteReg(R1, 0x00000400)  returns 0x00 (0000ms, 12105ms total)
T86A4 300:617 JLINK_WriteReg(R2, 0x200001B0)  returns 0x00 (0000ms, 12105ms total)
T86A4 300:617 JLINK_WriteReg(R3, 0x00000000)  returns 0x00 (0000ms, 12105ms total)
T86A4 300:617 JLINK_WriteReg(R4, 0x00000000)  returns 0x00 (0000ms, 12105ms total)
T86A4 300:617 JLINK_WriteReg(R5, 0x00000000)  returns 0x00 (0000ms, 12105ms total)
T86A4 300:617 JLINK_WriteReg(R6, 0x00000000)  returns 0x00 (0000ms, 12105ms total)
T86A4 300:617 JLINK_WriteReg(R7, 0x00000000)  returns 0x00 (0000ms, 12105ms total)
T86A4 300:617 JLINK_WriteReg(R8, 0x00000000)  returns 0x00 (0000ms, 12105ms total)
T86A4 300:617 JLINK_WriteReg(R9, 0x200001A8)  returns 0x00 (0000ms, 12105ms total)
T86A4 300:617 JLINK_WriteReg(R10, 0x00000000)  returns 0x00 (0000ms, 12105ms total)
T86A4 300:617 JLINK_WriteReg(R11, 0x00000000)  returns 0x00 (0000ms, 12105ms total)
T86A4 300:617 JLINK_WriteReg(R12, 0x00000000)  returns 0x00 (0000ms, 12105ms total)
T86A4 300:617 JLINK_WriteReg(R13 (SP), 0x20001000)  returns 0x00 (0000ms, 12105ms total)
T86A4 300:617 JLINK_WriteReg(R14, 0x20000001)  returns 0x00 (0000ms, 12105ms total)
T86A4 300:617 JLINK_WriteReg(R15 (PC), 0x20000102)  returns 0x00 (0000ms, 12105ms total)
T86A4 300:617 JLINK_WriteReg(XPSR, 0x01000000)  returns 0x00 (0000ms, 12105ms total)
T86A4 300:617 JLINK_WriteReg(MSP, 0x20001000)  returns 0x00 (0000ms, 12105ms total)
T86A4 300:617 JLINK_WriteReg(PSP, 0x20001000)  returns 0x00 (0000ms, 12105ms total)
T86A4 300:617 JLINK_WriteReg(CFBP, 0x00000000)  returns 0x00 (0000ms, 12105ms total)
T86A4 300:617 JLINK_SetBPEx(Addr = 0x20000000, Type = 0xFFFFFFF2)  returns 0x00000005 (0000ms, 12105ms total)
T86A4 300:617 JLINK_Go() -- CPU_ReadMem(4 bytes @ 0xE0001000) (0010ms, 12115ms total)
T86A4 300:627 JLINK_IsHalted()  returns FALSE (0003ms, 12118ms total)
T86A4 300:636 JLINK_IsHalted()  returns FALSE (0003ms, 12118ms total)
T86A4 300:642 JLINK_IsHalted() -- CPU_ReadMem(2 bytes @ 0x20000000)  returns TRUE (0012ms, 12127ms total)
T86A4 300:654 JLINK_ReadReg(R15 (PC))  returns 0x20000000 (0000ms, 12115ms total)
T86A4 300:654 JLINK_ClrBPEx(BPHandle = 0x00000005)  returns 0x00 (0000ms, 12115ms total)
T86A4 300:654 JLINK_ReadReg(R0)  returns 0x00000000 (0000ms, 12115ms total)
T86A4 300:654 JLINK_WriteMem(0x200001B0, 0x0250 Bytes, ...) - Data: FE E7 FE E7 FE E7 FE E7 4F 02 00 08 51 01 00 08 ... -- CPU_WriteMem(592 bytes @ 0x200001B0)  returns 0x250 (0008ms, 12123ms total)
T86A4 300:662 JLINK_WriteMem(0x20000400, 0x01B0 Bytes, ...) - Data: 83 43 24 1D 23 60 1A E0 35 4B 08 33 1B 68 83 43 ... -- CPU_WriteMem(432 bytes @ 0x20000400)  returns 0x1B0 (0008ms, 12131ms total)
T86A4 300:670 JLINK_WriteReg(R0, 0x08000400)  returns 0x00 (0000ms, 12131ms total)
T86A4 300:670 JLINK_WriteReg(R1, 0x00000400)  returns 0x00 (0000ms, 12131ms total)
T86A4 300:670 JLINK_WriteReg(R2, 0x200001B0)  returns 0x00 (0000ms, 12131ms total)
T86A4 300:670 JLINK_WriteReg(R3, 0x00000000)  returns 0x00 (0000ms, 12131ms total)
T86A4 300:670 JLINK_WriteReg(R4, 0x00000000)  returns 0x00 (0000ms, 12131ms total)
T86A4 300:670 JLINK_WriteReg(R5, 0x00000000)  returns 0x00 (0000ms, 12131ms total)
T86A4 300:670 JLINK_WriteReg(R6, 0x00000000)  returns 0x00 (0000ms, 12131ms total)
T86A4 300:670 JLINK_WriteReg(R7, 0x00000000)  returns 0x00 (0000ms, 12131ms total)
T86A4 300:670 JLINK_WriteReg(R8, 0x00000000)  returns 0x00 (0000ms, 12131ms total)
T86A4 300:670 JLINK_WriteReg(R9, 0x200001A8)  returns 0x00 (0000ms, 12131ms total)
T86A4 300:670 JLINK_WriteReg(R10, 0x00000000)  returns 0x00 (0000ms, 12131ms total)
T86A4 300:670 JLINK_WriteReg(R11, 0x00000000)  returns 0x00 (0000ms, 12131ms total)
T86A4 300:670 JLINK_WriteReg(R12, 0x00000000)  returns 0x00 (0000ms, 12131ms total)
T86A4 300:670 JLINK_WriteReg(R13 (SP), 0x20001000)  returns 0x00 (0000ms, 12131ms total)
T86A4 300:670 JLINK_WriteReg(R14, 0x20000001)  returns 0x00 (0000ms, 12131ms total)
T86A4 300:670 JLINK_WriteReg(R15 (PC), 0x20000102)  returns 0x00 (0000ms, 12131ms total)
T86A4 300:670 JLINK_WriteReg(XPSR, 0x01000000)  returns 0x00 (0000ms, 12131ms total)
T86A4 300:670 JLINK_WriteReg(MSP, 0x20001000)  returns 0x00 (0000ms, 12131ms total)
T86A4 300:670 JLINK_WriteReg(PSP, 0x20001000)  returns 0x00 (0000ms, 12131ms total)
T86A4 300:670 JLINK_WriteReg(CFBP, 0x00000000)  returns 0x00 (0000ms, 12131ms total)
T86A4 300:670 JLINK_SetBPEx(Addr = 0x20000000, Type = 0xFFFFFFF2)  returns 0x00000006 (0000ms, 12131ms total)
T86A4 300:670 JLINK_Go() -- CPU_ReadMem(4 bytes @ 0xE0001000) (0011ms, 12142ms total)
T86A4 300:681 JLINK_IsHalted()  returns FALSE (0003ms, 12145ms total)
T86A4 300:688 JLINK_IsHalted()  returns FALSE (0003ms, 12145ms total)
T86A4 300:693 JLINK_IsHalted() -- CPU_ReadMem(2 bytes @ 0x20000000)  returns TRUE (0012ms, 12154ms total)
T86A4 300:705 JLINK_ReadReg(R15 (PC))  returns 0x20000000 (0000ms, 12142ms total)
T86A4 300:705 JLINK_ClrBPEx(BPHandle = 0x00000006)  returns 0x00 (0000ms, 12142ms total)
T86A4 300:705 JLINK_ReadReg(R0)  returns 0x00000000 (0000ms, 12142ms total)
T86A4 300:705 JLINK_WriteMem(0x200001B0, 0x0250 Bytes, ...) - Data: 1F 40 C7 B1 22 68 4F EA 80 0C 0F 27 07 FA 0C F7 ... -- CPU_WriteMem(592 bytes @ 0x200001B0)  returns 0x250 (0008ms, 12150ms total)
T86A4 300:713 JLINK_WriteMem(0x20000400, 0x01B0 Bytes, ...) - Data: 01 20 70 47 00 20 FC E7 00 10 01 40 00 F8 FE BF ... -- CPU_WriteMem(432 bytes @ 0x20000400)  returns 0x1B0 (0008ms, 12158ms total)
T86A4 300:721 JLINK_WriteReg(R0, 0x08000800)  returns 0x00 (0000ms, 12158ms total)
T86A4 300:721 JLINK_WriteReg(R1, 0x00000400)  returns 0x00 (0000ms, 12158ms total)
T86A4 300:721 JLINK_WriteReg(R2, 0x200001B0)  returns 0x00 (0000ms, 12158ms total)
T86A4 300:721 JLINK_WriteReg(R3, 0x00000000)  returns 0x00 (0000ms, 12158ms total)
T86A4 300:721 JLINK_WriteReg(R4, 0x00000000)  returns 0x00 (0000ms, 12158ms total)
T86A4 300:721 JLINK_WriteReg(R5, 0x00000000)  returns 0x00 (0000ms, 12158ms total)
T86A4 300:721 JLINK_WriteReg(R6, 0x00000000)  returns 0x00 (0000ms, 12158ms total)
T86A4 300:721 JLINK_WriteReg(R7, 0x00000000)  returns 0x00 (0000ms, 12158ms total)
T86A4 300:721 JLINK_WriteReg(R8, 0x00000000)  returns 0x00 (0000ms, 12158ms total)
T86A4 300:721 JLINK_WriteReg(R9, 0x200001A8)  returns 0x00 (0000ms, 12158ms total)
T86A4 300:721 JLINK_WriteReg(R10, 0x00000000)  returns 0x00 (0000ms, 12158ms total)
T86A4 300:721 JLINK_WriteReg(R11, 0x00000000)  returns 0x00 (0000ms, 12158ms total)
T86A4 300:721 JLINK_WriteReg(R12, 0x00000000)  returns 0x00 (0000ms, 12158ms total)
T86A4 300:721 JLINK_WriteReg(R13 (SP), 0x20001000)  returns 0x00 (0000ms, 12158ms total)
T86A4 300:721 JLINK_WriteReg(R14, 0x20000001)  returns 0x00 (0000ms, 12158ms total)
T86A4 300:721 JLINK_WriteReg(R15 (PC), 0x20000102)  returns 0x00 (0000ms, 12158ms total)
T86A4 300:721 JLINK_WriteReg(XPSR, 0x01000000)  returns 0x00 (0000ms, 12158ms total)
T86A4 300:721 JLINK_WriteReg(MSP, 0x20001000)  returns 0x00 (0000ms, 12158ms total)
T86A4 300:721 JLINK_WriteReg(PSP, 0x20001000)  returns 0x00 (0000ms, 12158ms total)
T86A4 300:721 JLINK_WriteReg(CFBP, 0x00000000)  returns 0x00 (0000ms, 12158ms total)
T86A4 300:721 JLINK_SetBPEx(Addr = 0x20000000, Type = 0xFFFFFFF2)  returns 0x00000007 (0000ms, 12158ms total)
T86A4 300:721 JLINK_Go() -- CPU_ReadMem(4 bytes @ 0xE0001000) (0010ms, 12168ms total)
T86A4 300:731 JLINK_IsHalted()  returns FALSE (0003ms, 12171ms total)
T86A4 300:737 JLINK_IsHalted()  returns FALSE (0003ms, 12171ms total)
T86A4 300:742 JLINK_IsHalted() -- CPU_ReadMem(2 bytes @ 0x20000000)  returns TRUE (0012ms, 12180ms total)
T86A4 300:754 JLINK_ReadReg(R15 (PC))  returns 0x20000000 (0000ms, 12168ms total)
T86A4 300:754 JLINK_ClrBPEx(BPHandle = 0x00000007)  returns 0x00 (0000ms, 12168ms total)
T86A4 300:754 JLINK_ReadReg(R0)  returns 0x00000000 (0000ms, 12168ms total)
T86A4 300:754 JLINK_WriteMem(0x200001B0, 0x0250 Bytes, ...) - Data: 20 BF 70 47 52 4A 12 68 22 F0 03 02 50 4B 1A 60 ... -- CPU_WriteMem(592 bytes @ 0x200001B0)  returns 0x250 (0008ms, 12176ms total)
T86A4 300:762 JLINK_WriteMem(0x20000400, 0x01B0 Bytes, ...) - Data: 01 10 FF F7 89 FF 05 46 64 1C 15 B9 BC 48 84 42 ... -- CPU_WriteMem(432 bytes @ 0x20000400)  returns 0x1B0 (0008ms, 12184ms total)
T86A4 300:770 JLINK_WriteReg(R0, 0x08000C00)  returns 0x00 (0000ms, 12184ms total)
T86A4 300:770 JLINK_WriteReg(R1, 0x00000400)  returns 0x00 (0000ms, 12184ms total)
T86A4 300:770 JLINK_WriteReg(R2, 0x200001B0)  returns 0x00 (0000ms, 12184ms total)
T86A4 300:770 JLINK_WriteReg(R3, 0x00000000)  returns 0x00 (0000ms, 12184ms total)
T86A4 300:770 JLINK_WriteReg(R4, 0x00000000)  returns 0x00 (0000ms, 12184ms total)
T86A4 300:770 JLINK_WriteReg(R5, 0x00000000)  returns 0x00 (0000ms, 12184ms total)
T86A4 300:770 JLINK_WriteReg(R6, 0x00000000)  returns 0x00 (0000ms, 12184ms total)
T86A4 300:770 JLINK_WriteReg(R7, 0x00000000)  returns 0x00 (0000ms, 12184ms total)
T86A4 300:770 JLINK_WriteReg(R8, 0x00000000)  returns 0x00 (0000ms, 12184ms total)
T86A4 300:770 JLINK_WriteReg(R9, 0x200001A8)  returns 0x00 (0000ms, 12184ms total)
T86A4 300:770 JLINK_WriteReg(R10, 0x00000000)  returns 0x00 (0000ms, 12184ms total)
T86A4 300:770 JLINK_WriteReg(R11, 0x00000000)  returns 0x00 (0000ms, 12184ms total)
T86A4 300:770 JLINK_WriteReg(R12, 0x00000000)  returns 0x00 (0000ms, 12184ms total)
T86A4 300:770 JLINK_WriteReg(R13 (SP), 0x20001000)  returns 0x00 (0000ms, 12184ms total)
T86A4 300:770 JLINK_WriteReg(R14, 0x20000001)  returns 0x00 (0000ms, 12184ms total)
T86A4 300:770 JLINK_WriteReg(R15 (PC), 0x20000102)  returns 0x00 (0000ms, 12184ms total)
T86A4 300:770 JLINK_WriteReg(XPSR, 0x01000000)  returns 0x00 (0000ms, 12184ms total)
T86A4 300:770 JLINK_WriteReg(MSP, 0x20001000)  returns 0x00 (0000ms, 12184ms total)
T86A4 300:770 JLINK_WriteReg(PSP, 0x20001000)  returns 0x00 (0000ms, 12184ms total)
T86A4 300:770 JLINK_WriteReg(CFBP, 0x00000000)  returns 0x00 (0000ms, 12184ms total)
T86A4 300:770 JLINK_SetBPEx(Addr = 0x20000000, Type = 0xFFFFFFF2)  returns 0x00000008 (0000ms, 12184ms total)
T86A4 300:770 JLINK_Go() -- CPU_ReadMem(4 bytes @ 0xE0001000) (0010ms, 12194ms total)
T86A4 300:780 JLINK_IsHalted()  returns FALSE (0003ms, 12197ms total)
T86A4 300:786 JLINK_IsHalted()  returns FALSE (0003ms, 12197ms total)
T86A4 300:791 JLINK_IsHalted() -- CPU_ReadMem(2 bytes @ 0x20000000)  returns TRUE (0012ms, 12206ms total)
T86A4 300:803 JLINK_ReadReg(R15 (PC))  returns 0x20000000 (0000ms, 12194ms total)
T86A4 300:803 JLINK_ClrBPEx(BPHandle = 0x00000008)  returns 0x00 (0000ms, 12194ms total)
T86A4 300:803 JLINK_ReadReg(R0)  returns 0x00000000 (0000ms, 12194ms total)
T86A4 300:803 JLINK_WriteMem(0x200001B0, 0x0250 Bytes, ...) - Data: 52 4B 5A 60 70 47 51 48 40 68 00 F0 0C 00 70 47 ... -- CPU_WriteMem(592 bytes @ 0x200001B0)  returns 0x250 (0008ms, 12202ms total)
T86A4 300:811 JLINK_WriteMem(0x20000400, 0x01B0 Bytes, ...) - Data: 09 68 00 F0 1F 03 01 22 9A 40 11 43 A6 4B 03 EB ... -- CPU_WriteMem(432 bytes @ 0x20000400)  returns 0x1B0 (0008ms, 12210ms total)
T86A4 300:819 JLINK_WriteReg(R0, 0x08001000)  returns 0x00 (0000ms, 12210ms total)
T86A4 300:819 JLINK_WriteReg(R1, 0x00000400)  returns 0x00 (0000ms, 12210ms total)
T86A4 300:819 JLINK_WriteReg(R2, 0x200001B0)  returns 0x00 (0000ms, 12210ms total)
T86A4 300:819 JLINK_WriteReg(R3, 0x00000000)  returns 0x00 (0000ms, 12210ms total)
T86A4 300:819 JLINK_WriteReg(R4, 0x00000000)  returns 0x00 (0000ms, 12210ms total)
T86A4 300:819 JLINK_WriteReg(R5, 0x00000000)  returns 0x00 (0000ms, 12210ms total)
T86A4 300:819 JLINK_WriteReg(R6, 0x00000000)  returns 0x00 (0000ms, 12210ms total)
T86A4 300:819 JLINK_WriteReg(R7, 0x00000000)  returns 0x00 (0000ms, 12210ms total)
T86A4 300:819 JLINK_WriteReg(R8, 0x00000000)  returns 0x00 (0000ms, 12210ms total)
T86A4 300:819 JLINK_WriteReg(R9, 0x200001A8)  returns 0x00 (0000ms, 12210ms total)
T86A4 300:819 JLINK_WriteReg(R10, 0x00000000)  returns 0x00 (0000ms, 12210ms total)
T86A4 300:819 JLINK_WriteReg(R11, 0x00000000)  returns 0x00 (0000ms, 12210ms total)
T86A4 300:819 JLINK_WriteReg(R12, 0x00000000)  returns 0x00 (0000ms, 12210ms total)
T86A4 300:819 JLINK_WriteReg(R13 (SP), 0x20001000)  returns 0x00 (0000ms, 12210ms total)
T86A4 300:819 JLINK_WriteReg(R14, 0x20000001)  returns 0x00 (0000ms, 12210ms total)
T86A4 300:819 JLINK_WriteReg(R15 (PC), 0x20000102)  returns 0x00 (0000ms, 12210ms total)
T86A4 300:819 JLINK_WriteReg(XPSR, 0x01000000)  returns 0x00 (0000ms, 12210ms total)
T86A4 300:819 JLINK_WriteReg(MSP, 0x20001000)  returns 0x00 (0000ms, 12210ms total)
T86A4 300:819 JLINK_WriteReg(PSP, 0x20001000)  returns 0x00 (0000ms, 12210ms total)
T86A4 300:819 JLINK_WriteReg(CFBP, 0x00000000)  returns 0x00 (0000ms, 12210ms total)
T86A4 300:819 JLINK_SetBPEx(Addr = 0x20000000, Type = 0xFFFFFFF2)  returns 0x00000009 (0000ms, 12210ms total)
T86A4 300:819 JLINK_Go() -- CPU_ReadMem(4 bytes @ 0xE0001000) (0010ms, 12220ms total)
T86A4 300:829 JLINK_IsHalted()  returns FALSE (0003ms, 12223ms total)
T86A4 300:835 JLINK_IsHalted()  returns FALSE (0003ms, 12223ms total)
T86A4 300:840 JLINK_IsHalted() -- CPU_ReadMem(2 bytes @ 0x20000000)  returns TRUE (0012ms, 12232ms total)
T86A4 300:852 JLINK_ReadReg(R15 (PC))  returns 0x20000000 (0000ms, 12220ms total)
T86A4 300:852 JLINK_ClrBPEx(BPHandle = 0x00000009)  returns 0x00 (0000ms, 12220ms total)
T86A4 300:852 JLINK_ReadReg(R0)  returns 0x00000000 (0000ms, 12220ms total)
T86A4 300:852 JLINK_WriteMem(0x200001B0, 0x0250 Bytes, ...) - Data: 0B 90 0B 98 08 B9 41 49 00 E0 41 49 3A 48 C0 6A ... -- CPU_WriteMem(592 bytes @ 0x200001B0)  returns 0x250 (0008ms, 12228ms total)
T86A4 300:860 JLINK_WriteMem(0x20000400, 0x01B0 Bytes, ...) - Data: B0 F5 78 4F 1A D1 4F F4 43 70 FF F7 A1 FC 4F F4 ... -- CPU_WriteMem(432 bytes @ 0x20000400)  returns 0x1B0 (0008ms, 12236ms total)
T86A4 300:868 JLINK_WriteReg(R0, 0x08001400)  returns 0x00 (0000ms, 12236ms total)
T86A4 300:868 JLINK_WriteReg(R1, 0x00000400)  returns 0x00 (0000ms, 12236ms total)
T86A4 300:868 JLINK_WriteReg(R2, 0x200001B0)  returns 0x00 (0000ms, 12236ms total)
T86A4 300:868 JLINK_WriteReg(R3, 0x00000000)  returns 0x00 (0000ms, 12236ms total)
T86A4 300:868 JLINK_WriteReg(R4, 0x00000000)  returns 0x00 (0000ms, 12236ms total)
T86A4 300:868 JLINK_WriteReg(R5, 0x00000000)  returns 0x00 (0000ms, 12236ms total)
T86A4 300:868 JLINK_WriteReg(R6, 0x00000000)  returns 0x00 (0000ms, 12236ms total)
T86A4 300:868 JLINK_WriteReg(R7, 0x00000000)  returns 0x00 (0000ms, 12236ms total)
T86A4 300:868 JLINK_WriteReg(R8, 0x00000000)  returns 0x00 (0000ms, 12236ms total)
T86A4 300:868 JLINK_WriteReg(R9, 0x200001A8)  returns 0x00 (0000ms, 12236ms total)
T86A4 300:868 JLINK_WriteReg(R10, 0x00000000)  returns 0x00 (0000ms, 12236ms total)
T86A4 300:868 JLINK_WriteReg(R11, 0x00000000)  returns 0x00 (0000ms, 12236ms total)
T86A4 300:868 JLINK_WriteReg(R12, 0x00000000)  returns 0x00 (0000ms, 12236ms total)
T86A4 300:868 JLINK_WriteReg(R13 (SP), 0x20001000)  returns 0x00 (0000ms, 12236ms total)
T86A4 300:868 JLINK_WriteReg(R14, 0x20000001)  returns 0x00 (0000ms, 12236ms total)
T86A4 300:868 JLINK_WriteReg(R15 (PC), 0x20000102)  returns 0x00 (0000ms, 12236ms total)
T86A4 300:868 JLINK_WriteReg(XPSR, 0x01000000)  returns 0x00 (0000ms, 12236ms total)
T86A4 300:868 JLINK_WriteReg(MSP, 0x20001000)  returns 0x00 (0000ms, 12236ms total)
T86A4 300:868 JLINK_WriteReg(PSP, 0x20001000)  returns 0x00 (0000ms, 12236ms total)
T86A4 300:868 JLINK_WriteReg(CFBP, 0x00000000)  returns 0x00 (0000ms, 12236ms total)
T86A4 300:868 JLINK_SetBPEx(Addr = 0x20000000, Type = 0xFFFFFFF2)  returns 0x0000000A (0000ms, 12236ms total)
T86A4 300:868 JLINK_Go() -- CPU_ReadMem(4 bytes @ 0xE0001000) (0010ms, 12246ms total)
T86A4 300:878 JLINK_IsHalted()  returns FALSE (0003ms, 12249ms total)
T86A4 300:887 JLINK_IsHalted()  returns FALSE (0003ms, 12249ms total)
T86A4 300:892 JLINK_IsHalted() -- CPU_ReadMem(2 bytes @ 0x20000000)  returns TRUE (0012ms, 12258ms total)
T86A4 300:904 JLINK_ReadReg(R15 (PC))  returns 0x20000000 (0000ms, 12246ms total)
T86A4 300:904 JLINK_ClrBPEx(BPHandle = 0x0000000A)  returns 0x00 (0000ms, 12246ms total)
T86A4 300:904 JLINK_ReadReg(R0)  returns 0x00000000 (0000ms, 12246ms total)
T86A4 300:904 JLINK_WriteMem(0x200001B0, 0x0250 Bytes, ...) - Data: E8 69 40 EA 08 00 E8 61 BD E8 F0 9F C1 69 41 F4 ... -- CPU_WriteMem(592 bytes @ 0x200001B0)  returns 0x250 (0008ms, 12254ms total)
T86A4 300:912 JLINK_WriteMem(0x20000400, 0x01B0 Bytes, ...) - Data: 01 20 70 47 00 20 FC E7 81 68 21 F0 10 01 81 60 ... -- CPU_WriteMem(432 bytes @ 0x20000400)  returns 0x1B0 (0008ms, 12262ms total)
T86A4 300:920 JLINK_WriteReg(R0, 0x08001800)  returns 0x00 (0000ms, 12262ms total)
T86A4 300:920 JLINK_WriteReg(R1, 0x00000400)  returns 0x00 (0000ms, 12262ms total)
T86A4 300:920 JLINK_WriteReg(R2, 0x200001B0)  returns 0x00 (0000ms, 12262ms total)
T86A4 300:920 JLINK_WriteReg(R3, 0x00000000)  returns 0x00 (0000ms, 12262ms total)
T86A4 300:920 JLINK_WriteReg(R4, 0x00000000)  returns 0x00 (0000ms, 12262ms total)
T86A4 300:920 JLINK_WriteReg(R5, 0x00000000)  returns 0x00 (0000ms, 12262ms total)
T86A4 300:920 JLINK_WriteReg(R6, 0x00000000)  returns 0x00 (0000ms, 12262ms total)
T86A4 300:920 JLINK_WriteReg(R7, 0x00000000)  returns 0x00 (0000ms, 12262ms total)
T86A4 300:920 JLINK_WriteReg(R8, 0x00000000)  returns 0x00 (0000ms, 12262ms total)
T86A4 300:920 JLINK_WriteReg(R9, 0x200001A8)  returns 0x00 (0000ms, 12262ms total)
T86A4 300:920 JLINK_WriteReg(R10, 0x00000000)  returns 0x00 (0000ms, 12262ms total)
T86A4 300:920 JLINK_WriteReg(R11, 0x00000000)  returns 0x00 (0000ms, 12262ms total)
T86A4 300:920 JLINK_WriteReg(R12, 0x00000000)  returns 0x00 (0000ms, 12262ms total)
T86A4 300:920 JLINK_WriteReg(R13 (SP), 0x20001000)  returns 0x00 (0000ms, 12262ms total)
T86A4 300:920 JLINK_WriteReg(R14, 0x20000001)  returns 0x00 (0000ms, 12262ms total)
T86A4 300:920 JLINK_WriteReg(R15 (PC), 0x20000102)  returns 0x00 (0000ms, 12262ms total)
T86A4 300:920 JLINK_WriteReg(XPSR, 0x01000000)  returns 0x00 (0000ms, 12262ms total)
T86A4 300:920 JLINK_WriteReg(MSP, 0x20001000)  returns 0x00 (0000ms, 12262ms total)
T86A4 300:920 JLINK_WriteReg(PSP, 0x20001000)  returns 0x00 (0000ms, 12262ms total)
T86A4 300:920 JLINK_WriteReg(CFBP, 0x00000000)  returns 0x00 (0000ms, 12262ms total)
T86A4 300:920 JLINK_SetBPEx(Addr = 0x20000000, Type = 0xFFFFFFF2)  returns 0x0000000B (0000ms, 12262ms total)
T86A4 300:920 JLINK_Go() -- CPU_ReadMem(4 bytes @ 0xE0001000) (0010ms, 12272ms total)
T86A4 300:930 JLINK_IsHalted()  returns FALSE (0003ms, 12275ms total)
T86A4 300:936 JLINK_IsHalted()  returns FALSE (0003ms, 12275ms total)
T86A4 300:941 JLINK_IsHalted() -- CPU_ReadMem(2 bytes @ 0x20000000)  returns TRUE (0012ms, 12284ms total)
T86A4 300:953 JLINK_ReadReg(R15 (PC))  returns 0x20000000 (0000ms, 12272ms total)
T86A4 300:953 JLINK_ClrBPEx(BPHandle = 0x0000000B)  returns 0x00 (0000ms, 12272ms total)
T86A4 300:953 JLINK_ReadReg(R0)  returns 0x00000000 (0000ms, 12272ms total)
T86A4 300:953 JLINK_WriteMem(0x200001B0, 0x0250 Bytes, ...) - Data: 93 4A 52 42 90 42 08 D0 93 4A 90 42 05 D0 8F 4A ... -- CPU_WriteMem(592 bytes @ 0x200001B0)  returns 0x250 (0008ms, 12280ms total)
T86A4 300:961 JLINK_WriteMem(0x20000400, 0x01B0 Bytes, ...) - Data: 00 FC FF BF 00 2C 01 40 00 08 00 40 00 34 01 40 ... -- CPU_WriteMem(432 bytes @ 0x20000400)  returns 0x1B0 (0008ms, 12288ms total)
T86A4 300:969 JLINK_WriteReg(R0, 0x08001C00)  returns 0x00 (0000ms, 12288ms total)
T86A4 300:969 JLINK_WriteReg(R1, 0x00000400)  returns 0x00 (0000ms, 12288ms total)
T86A4 300:969 JLINK_WriteReg(R2, 0x200001B0)  returns 0x00 (0000ms, 12288ms total)
T86A4 300:969 JLINK_WriteReg(R3, 0x00000000)  returns 0x00 (0000ms, 12288ms total)
T86A4 300:969 JLINK_WriteReg(R4, 0x00000000)  returns 0x00 (0000ms, 12288ms total)
T86A4 300:969 JLINK_WriteReg(R5, 0x00000000)  returns 0x00 (0000ms, 12288ms total)
T86A4 300:969 JLINK_WriteReg(R6, 0x00000000)  returns 0x00 (0000ms, 12288ms total)
T86A4 300:969 JLINK_WriteReg(R7, 0x00000000)  returns 0x00 (0000ms, 12288ms total)
T86A4 300:969 JLINK_WriteReg(R8, 0x00000000)  returns 0x00 (0000ms, 12288ms total)
T86A4 300:969 JLINK_WriteReg(R9, 0x200001A8)  returns 0x00 (0000ms, 12288ms total)
T86A4 300:969 JLINK_WriteReg(R10, 0x00000000)  returns 0x00 (0000ms, 12288ms total)
T86A4 300:969 JLINK_WriteReg(R11, 0x00000000)  returns 0x00 (0000ms, 12288ms total)
T86A4 300:969 JLINK_WriteReg(R12, 0x00000000)  returns 0x00 (0000ms, 12288ms total)
T86A4 300:969 JLINK_WriteReg(R13 (SP), 0x20001000)  returns 0x00 (0000ms, 12288ms total)
T86A4 300:969 JLINK_WriteReg(R14, 0x20000001)  returns 0x00 (0000ms, 12288ms total)
T86A4 300:969 JLINK_WriteReg(R15 (PC), 0x20000102)  returns 0x00 (0000ms, 12288ms total)
T86A4 300:969 JLINK_WriteReg(XPSR, 0x01000000)  returns 0x00 (0000ms, 12288ms total)
T86A4 300:969 JLINK_WriteReg(MSP, 0x20001000)  returns 0x00 (0000ms, 12288ms total)
T86A4 300:969 JLINK_WriteReg(PSP, 0x20001000)  returns 0x00 (0000ms, 12288ms total)
T86A4 300:969 JLINK_WriteReg(CFBP, 0x00000000)  returns 0x00 (0000ms, 12288ms total)
T86A4 300:969 JLINK_SetBPEx(Addr = 0x20000000, Type = 0xFFFFFFF2)  returns 0x0000000C (0000ms, 12288ms total)
T86A4 300:969 JLINK_Go() -- CPU_ReadMem(4 bytes @ 0xE0001000) (0010ms, 12298ms total)
T86A4 300:979 JLINK_IsHalted()  returns FALSE (0003ms, 12301ms total)
T86A4 300:985 JLINK_IsHalted()  returns FALSE (0003ms, 12301ms total)
T86A4 300:990 JLINK_IsHalted() -- CPU_ReadMem(2 bytes @ 0x20000000)  returns TRUE (0012ms, 12310ms total)
T86A4 301:002 JLINK_ReadReg(R15 (PC))  returns 0x20000000 (0000ms, 12298ms total)
T86A4 301:002 JLINK_ClrBPEx(BPHandle = 0x0000000C)  returns 0x00 (0000ms, 12298ms total)
T86A4 301:002 JLINK_ReadReg(R0)  returns 0x00000000 (0000ms, 12298ms total)
T86A4 301:002 JLINK_WriteMem(0x200001B0, 0x0250 Bytes, ...) - Data: 03 62 03 6A 94 88 43 EA 04 33 03 62 97 4B 98 42 ... -- CPU_WriteMem(592 bytes @ 0x200001B0)  returns 0x250 (0008ms, 12306ms total)
T86A4 301:010 JLINK_WriteMem(0x20000400, 0x01B0 Bytes, ...) - Data: 09 E0 03 6A 23 F4 00 63 03 62 03 6A 43 EA 02 23 ... -- CPU_WriteMem(432 bytes @ 0x20000400)  returns 0x1B0 (0008ms, 12314ms total)
T86A4 301:018 JLINK_WriteReg(R0, 0x08002000)  returns 0x00 (0000ms, 12314ms total)
T86A4 301:018 JLINK_WriteReg(R1, 0x00000400)  returns 0x00 (0000ms, 12314ms total)
T86A4 301:018 JLINK_WriteReg(R2, 0x200001B0)  returns 0x00 (0000ms, 12314ms total)
T86A4 301:018 JLINK_WriteReg(R3, 0x00000000)  returns 0x00 (0000ms, 12314ms total)
T86A4 301:018 JLINK_WriteReg(R4, 0x00000000)  returns 0x00 (0000ms, 12314ms total)
T86A4 301:018 JLINK_WriteReg(R5, 0x00000000)  returns 0x00 (0000ms, 12314ms total)
T86A4 301:018 JLINK_WriteReg(R6, 0x00000000)  returns 0x00 (0000ms, 12314ms total)
T86A4 301:018 JLINK_WriteReg(R7, 0x00000000)  returns 0x00 (0000ms, 12314ms total)
T86A4 301:018 JLINK_WriteReg(R8, 0x00000000)  returns 0x00 (0000ms, 12314ms total)
T86A4 301:018 JLINK_WriteReg(R9, 0x200001A8)  returns 0x00 (0000ms, 12314ms total)
T86A4 301:018 JLINK_WriteReg(R10, 0x00000000)  returns 0x00 (0000ms, 12314ms total)
T86A4 301:018 JLINK_WriteReg(R11, 0x00000000)  returns 0x00 (0000ms, 12314ms total)
T86A4 301:018 JLINK_WriteReg(R12, 0x00000000)  returns 0x00 (0000ms, 12314ms total)
T86A4 301:018 JLINK_WriteReg(R13 (SP), 0x20001000)  returns 0x00 (0000ms, 12314ms total)
T86A4 301:018 JLINK_WriteReg(R14, 0x20000001)  returns 0x00 (0000ms, 12314ms total)
T86A4 301:018 JLINK_WriteReg(R15 (PC), 0x20000102)  returns 0x00 (0000ms, 12314ms total)
T86A4 301:018 JLINK_WriteReg(XPSR, 0x01000000)  returns 0x00 (0000ms, 12314ms total)
T86A4 301:018 JLINK_WriteReg(MSP, 0x20001000)  returns 0x00 (0000ms, 12314ms total)
T86A4 301:018 JLINK_WriteReg(PSP, 0x20001000)  returns 0x00 (0000ms, 12314ms total)
T86A4 301:018 JLINK_WriteReg(CFBP, 0x00000000)  returns 0x00 (0000ms, 12314ms total)
T86A4 301:018 JLINK_SetBPEx(Addr = 0x20000000, Type = 0xFFFFFFF2)  returns 0x0000000D (0000ms, 12314ms total)
T86A4 301:018 JLINK_Go() -- CPU_ReadMem(4 bytes @ 0xE0001000) (0010ms, 12324ms total)
T86A4 301:028 JLINK_IsHalted()  returns FALSE (0003ms, 12327ms total)
T86A4 301:034 JLINK_IsHalted()  returns FALSE (0003ms, 12327ms total)
T86A4 301:039 JLINK_IsHalted() -- CPU_ReadMem(2 bytes @ 0x20000000)  returns TRUE (0012ms, 12336ms total)
T86A4 301:051 JLINK_ReadReg(R15 (PC))  returns 0x20000000 (0000ms, 12324ms total)
T86A4 301:051 JLINK_ClrBPEx(BPHandle = 0x0000000D)  returns 0x00 (0000ms, 12324ms total)
T86A4 301:051 JLINK_ReadReg(R0)  returns 0x00000000 (0000ms, 12324ms total)
T86A4 301:051 JLINK_WriteMem(0x200001B0, 0x0250 Bytes, ...) - Data: 69 88 40 EA 01 20 A0 61 A0 69 20 F4 70 40 A0 61 ... -- CPU_WriteMem(592 bytes @ 0x200001B0)  returns 0x250 (0009ms, 12333ms total)
T86A4 301:060 JLINK_WriteMem(0x20000400, 0x01B0 Bytes, ...) - Data: BD E8 F0 81 80 29 04 D1 42 68 42 F0 80 02 42 60 ... -- CPU_WriteMem(432 bytes @ 0x20000400)  returns 0x1B0 (0008ms, 12341ms total)
T86A4 301:068 JLINK_WriteReg(R0, 0x08002400)  returns 0x00 (0000ms, 12341ms total)
T86A4 301:068 JLINK_WriteReg(R1, 0x00000400)  returns 0x00 (0000ms, 12341ms total)
T86A4 301:068 JLINK_WriteReg(R2, 0x200001B0)  returns 0x00 (0000ms, 12341ms total)
T86A4 301:068 JLINK_WriteReg(R3, 0x00000000)  returns 0x00 (0000ms, 12341ms total)
T86A4 301:068 JLINK_WriteReg(R4, 0x00000000)  returns 0x00 (0000ms, 12341ms total)
T86A4 301:068 JLINK_WriteReg(R5, 0x00000000)  returns 0x00 (0000ms, 12341ms total)
T86A4 301:068 JLINK_WriteReg(R6, 0x00000000)  returns 0x00 (0000ms, 12341ms total)
T86A4 301:068 JLINK_WriteReg(R7, 0x00000000)  returns 0x00 (0000ms, 12341ms total)
T86A4 301:068 JLINK_WriteReg(R8, 0x00000000)  returns 0x00 (0000ms, 12341ms total)
T86A4 301:068 JLINK_WriteReg(R9, 0x200001A8)  returns 0x00 (0000ms, 12341ms total)
T86A4 301:068 JLINK_WriteReg(R10, 0x00000000)  returns 0x00 (0000ms, 12341ms total)
T86A4 301:068 JLINK_WriteReg(R11, 0x00000000)  returns 0x00 (0000ms, 12341ms total)
T86A4 301:068 JLINK_WriteReg(R12, 0x00000000)  returns 0x00 (0000ms, 12341ms total)
T86A4 301:068 JLINK_WriteReg(R13 (SP), 0x20001000)  returns 0x00 (0000ms, 12341ms total)
T86A4 301:068 JLINK_WriteReg(R14, 0x20000001)  returns 0x00 (0000ms, 12341ms total)
T86A4 301:068 JLINK_WriteReg(R15 (PC), 0x20000102)  returns 0x00 (0000ms, 12341ms total)
T86A4 301:068 JLINK_WriteReg(XPSR, 0x01000000)  returns 0x00 (0000ms, 12341ms total)
T86A4 301:068 JLINK_WriteReg(MSP, 0x20001000)  returns 0x00 (0000ms, 12341ms total)
T86A4 301:068 JLINK_WriteReg(PSP, 0x20001000)  returns 0x00 (0000ms, 12341ms total)
T86A4 301:068 JLINK_WriteReg(CFBP, 0x00000000)  returns 0x00 (0000ms, 12341ms total)
T86A4 301:068 JLINK_SetBPEx(Addr = 0x20000000, Type = 0xFFFFFFF2)  returns 0x0000000E (0000ms, 12341ms total)
T86A4 301:068 JLINK_Go() -- CPU_ReadMem(4 bytes @ 0xE0001000) (0010ms, 12351ms total)
T86A4 301:078 JLINK_IsHalted()  returns FALSE (0003ms, 12354ms total)
T86A4 301:087 JLINK_IsHalted()  returns FALSE (0003ms, 12354ms total)
T86A4 301:092 JLINK_IsHalted() -- CPU_ReadMem(2 bytes @ 0x20000000)  returns TRUE (0012ms, 12363ms total)
T86A4 301:104 JLINK_ReadReg(R15 (PC))  returns 0x20000000 (0000ms, 12351ms total)
T86A4 301:104 JLINK_ClrBPEx(BPHandle = 0x0000000E)  returns 0x00 (0000ms, 12351ms total)
T86A4 301:104 JLINK_ReadReg(R0)  returns 0x00000000 (0000ms, 12351ms total)
T86A4 301:104 JLINK_WriteMem(0x200001B0, 0x0250 Bytes, ...) - Data: 77 00 A0 60 A0 68 40 F0 77 00 A0 60 F0 BD F0 B5 ... -- CPU_WriteMem(592 bytes @ 0x200001B0)  returns 0x250 (0008ms, 12359ms total)
T86A4 301:112 JLINK_WriteMem(0x20000400, 0x01B0 Bytes, ...) - Data: 03 18 0A 1F 11 26 D0 F8 80 20 42 F4 80 62 C0 F8 ... -- CPU_WriteMem(432 bytes @ 0x20000400)  returns 0x1B0 (0008ms, 12367ms total)
T86A4 301:120 JLINK_WriteReg(R0, 0x08002800)  returns 0x00 (0000ms, 12367ms total)
T86A4 301:120 JLINK_WriteReg(R1, 0x00000400)  returns 0x00 (0000ms, 12367ms total)
T86A4 301:120 JLINK_WriteReg(R2, 0x200001B0)  returns 0x00 (0000ms, 12367ms total)
T86A4 301:120 JLINK_WriteReg(R3, 0x00000000)  returns 0x00 (0000ms, 12367ms total)
T86A4 301:120 JLINK_WriteReg(R4, 0x00000000)  returns 0x00 (0000ms, 12367ms total)
T86A4 301:120 JLINK_WriteReg(R5, 0x00000000)  returns 0x00 (0000ms, 12367ms total)
T86A4 301:120 JLINK_WriteReg(R6, 0x00000000)  returns 0x00 (0000ms, 12367ms total)
T86A4 301:120 JLINK_WriteReg(R7, 0x00000000)  returns 0x00 (0000ms, 12367ms total)
T86A4 301:120 JLINK_WriteReg(R8, 0x00000000)  returns 0x00 (0000ms, 12367ms total)
T86A4 301:120 JLINK_WriteReg(R9, 0x200001A8)  returns 0x00 (0000ms, 12367ms total)
T86A4 301:120 JLINK_WriteReg(R10, 0x00000000)  returns 0x00 (0000ms, 12367ms total)
T86A4 301:120 JLINK_WriteReg(R11, 0x00000000)  returns 0x00 (0000ms, 12367ms total)
T86A4 301:120 JLINK_WriteReg(R12, 0x00000000)  returns 0x00 (0000ms, 12367ms total)
T86A4 301:120 JLINK_WriteReg(R13 (SP), 0x20001000)  returns 0x00 (0000ms, 12367ms total)
T86A4 301:120 JLINK_WriteReg(R14, 0x20000001)  returns 0x00 (0000ms, 12367ms total)
T86A4 301:120 JLINK_WriteReg(R15 (PC), 0x20000102)  returns 0x00 (0000ms, 12367ms total)
T86A4 301:120 JLINK_WriteReg(XPSR, 0x01000000)  returns 0x00 (0000ms, 12367ms total)
T86A4 301:120 JLINK_WriteReg(MSP, 0x20001000)  returns 0x00 (0000ms, 12367ms total)
T86A4 301:120 JLINK_WriteReg(PSP, 0x20001000)  returns 0x00 (0000ms, 12367ms total)
T86A4 301:120 JLINK_WriteReg(CFBP, 0x00000000)  returns 0x00 (0000ms, 12367ms total)
T86A4 301:120 JLINK_SetBPEx(Addr = 0x20000000, Type = 0xFFFFFFF2)  returns 0x0000000F (0000ms, 12367ms total)
T86A4 301:120 JLINK_Go() -- CPU_ReadMem(4 bytes @ 0xE0001000) (0010ms, 12377ms total)
T86A4 301:130 JLINK_IsHalted()  returns FALSE (0003ms, 12380ms total)
T86A4 301:138 JLINK_IsHalted()  returns FALSE (0003ms, 12380ms total)
T86A4 301:143 JLINK_IsHalted() -- CPU_ReadMem(2 bytes @ 0x20000000)  returns TRUE (0012ms, 12389ms total)
T86A4 301:155 JLINK_ReadReg(R15 (PC))  returns 0x20000000 (0000ms, 12377ms total)
T86A4 301:155 JLINK_ClrBPEx(BPHandle = 0x0000000F)  returns 0x00 (0000ms, 12377ms total)
T86A4 301:155 JLINK_ReadReg(R0)  returns 0x00000000 (0000ms, 12377ms total)
T86A4 301:155 JLINK_WriteMem(0x200001B0, 0x0250 Bytes, ...) - Data: 50 F8 84 2F 22 F0 7F 42 02 60 02 68 4F F0 7F 43 ... -- CPU_WriteMem(592 bytes @ 0x200001B0)  returns 0x250 (0008ms, 12385ms total)
T86A4 301:163 JLINK_WriteMem(0x20000400, 0x01B0 Bytes, ...) - Data: 00 00 00 00 56 31 2E 31 00 00 00 00 2A 20 56 65 ... -- CPU_WriteMem(432 bytes @ 0x20000400)  returns 0x1B0 (0008ms, 12393ms total)
T86A4 301:171 JLINK_WriteReg(R0, 0x08002C00)  returns 0x00 (0000ms, 12393ms total)
